
T0FA0 000:386 SEGGER J-Link V4.80g Log File (0000ms, 0271ms total)
T0FA0 000:386 DLL Compiled: Feb 13 2014 20:50:02 (0000ms, 0271ms total)
T0FA0 000:386 Logging started @ 2016-07-27 19:14 (0000ms, 0271ms total)
T0FA0 000:386 JLINK_SetWarnOutHandler(...) (0000ms, 0271ms total)
T0FA0 000:386 JLINK_OpenEx(...)
Firmware: J-Link ARM V8 compiled Nov 28 2014 13:44:46
Hardware: V8.00
S/N: 17935099
Feature(s): RDI,FlashDL,FlashBP,JFlash  returns O.K. (0268ms, 0539ms total)
T0FA0 000:654 JLINK_SetErrorOutHandler(...) (0000ms, 0539ms total)
T0FA0 000:654 JLINK_ExecCommand("ProjectFile = "E:\GitHub\MPU9250_TEST\MPU9250_TEST\USER\JLinkSettings.ini"", ...)  returns 0x00 (0000ms, 0539ms total)
T0FA0 000:660 JLINK_ExecCommand("Device = STM32F103VE", ...)Device "STM32F103VE" selected (512 KB flash, 64 KB RAM).  returns 0x00 (0007ms, 0546ms total)
T0FA0 000:667 JLINK_ExecCommand("DisableConnectionTimeout", ...)  returns 0x01 (0000ms, 0546ms total)
T0FA0 000:667 JLINK_GetHardwareVersion()  returns 0x13880 (0000ms, 0546ms total)
T0FA0 000:667 JLINK_GetDLLVersion()  returns 48007 (0000ms, 0546ms total)
T0FA0 000:667 JLINK_GetFirmwareString(...) (0000ms, 0546ms total)
T0FA0 000:674 JLINK_GetDLLVersion()  returns 48007 (0000ms, 0546ms total)
T0FA0 000:674 JLINK_GetCompileDateTime() (0000ms, 0546ms total)
T0FA0 000:679 JLINK_GetFirmwareString(...) (0000ms, 0546ms total)
T0FA0 000:681 JLINK_GetHardwareVersion()  returns 0x13880 (0000ms, 0546ms total)
T0FA0 000:691 JLINK_TIF_Select(JLINKARM_TIF_JTAG)  returns 0x00 (0006ms, 0552ms total)
T0FA0 000:697 JLINK_SetSpeed(2000) (0001ms, 0553ms total)
T0FA0 000:698 JLINK_GetIdData(...) >0x2F8 JTAG>TotalIRLen = 9, IRPrint = 0x0011 >0x30 JTAG> >0x210 JTAG> >0x40 JTAG> >0x40 JTAG> >0x40 JTAG> >0x30 JTAG> >0x40 JTAG> >0x40 JTAG> >0x40 JTAG> >0x40 JTAG> >0x40 JTAG> >0x40 JTAG> >0x40 JTAG> >0x40 JTAG> >0x2F8 JTAG>TotalIRLen = 9, IRPrint = 0x0011 >0x30 JTAG> >0x210 JTAG> >0x70 JTAG> >0x40 JTAG> >0x40 JTAG> >0x40 JTAG> >0x50 JTAG> >0x80 JTAG> >0x40 JTAG> >0x30 JTAG> >0x40 JTAG> >0x40 JTAG> >0x30 JTAG> >0x40 JTAG> >0x50 JTAG>
Found Cortex-M3 r1p1, Little endian. -- CPU_WriteMem(4 bytes @ 0xE0002000) -- CPU_ReadMem(4 bytes @ 0xE000EDF0) -- CPU_ReadMem(4 bytes @ 0xE0002000)FPUnit: 6 code (BP) slots and 2 literal slots -- CPU_ReadMem(4 bytes @ 0xE000EDFC) -- CPU_ReadMem(4 bytes @ 0xE0001000) -- CPU_WriteMem(4 bytes @ 0xE0001000) -- CPU_ReadMem(4 bytes @ 0xE00FF010)TPIU fitted. -- CPU_ReadMem(4 bytes @ 0xE00FF014) -- CPU_ReadMem(4 bytes @ 0xE00FF018) ScanLen=9 NumDevices=2 aId[0]=0x3BA00477 aIrRead[0]=0 aScanLen[0]=0
 aScanRead[0]=0 (0058ms, 0611ms total)
T0FA0 000:756 JLINK_JTAG_GetDeviceID(DeviceIndex = 0)  returns 0x3BA00477 (0000ms, 0611ms total)
T0FA0 000:756 JLINK_JTAG_GetDeviceInfo(DeviceIndex = 0)  returns 0x00 (0000ms, 0611ms total)
T0FA0 000:756 JLINK_JTAG_GetDeviceID(DeviceIndex = 1)  returns 0x16410041 (0000ms, 0611ms total)
T0FA0 000:756 JLINK_JTAG_GetDeviceInfo(DeviceIndex = 1)  returns 0x00 (0001ms, 0612ms total)
T0FA0 000:757 JLINK_GetDeviceFamily()  returns 3 (0000ms, 0612ms total)
T0FA0 000:759 JLINK_ReadMem (0xE00FFFF0, 0x0010 Bytes, ...) -- CPU is running -- CPU_ReadMem(16 bytes @ 0xE00FFFF0) -- Data:  0D 00 00 00 10 00 00 00 05 00 00 00 B1 00 00 00  returns 0x00 (0001ms, 0613ms total)
T0FA0 000:760 JLINK_ReadMem (0xE00FFFD0, 0x0020 Bytes, ...) -- CPU is running -- CPU_ReadMem(32 bytes @ 0xE00FFFD0) -- Data:  00 00 00 00 00 00 00 00 00 00 00 00 00 00 00 00 ...  returns 0x00 (0001ms, 0614ms total)
T0FA0 000:761 JLINK_ReadMem (0xE00FF000, 0x0018 Bytes, ...) -- CPU is running -- CPU_ReadMem(24 bytes @ 0xE00FF000) -- Data:  03 F0 F0 FF 03 20 F0 FF 03 30 F0 FF 03 10 F0 FF ...  returns 0x00 (0001ms, 0615ms total)
T0FA0 000:762 JLINK_ReadMemU32(0xE000ED00, 0x0001 Items, ...) -- CPU is running -- CPU_ReadMem(4 bytes @ 0xE000ED00) -- Data:  31 C2 1F 41  returns 0x01 (0001ms, 0616ms total)
T0FA0 000:763 JLINK_SetResetType(JLINKARM_RESET_TYPE_NORMAL)  returns JLINKARM_RESET_TYPE_NORMAL (0000ms, 0616ms total)
T0FA0 000:763 JLINK_Reset() -- CPU is running -- CPU_WriteMem(4 bytes @ 0xE000EDF0) -- CPU is running -- CPU_WriteMem(4 bytes @ 0xE000EDFC) -- CPU is running -- CPU_WriteMem(4 bytes @ 0xE000ED0C) -- CPU is running -- CPU_ReadMem(4 bytes @ 0xE000EDF0) -- CPU is running -- CPU_ReadMem(4 bytes @ 0xE000EDF0) -- CPU is running -- CPU_WriteMem(4 bytes @ 0xE000EDF0) -- CPU is running -- CPU_WriteMem(4 bytes @ 0xE000EDFC) -- CPU is running -- CPU_ReadMem(4 bytes @ 0xE000EDF0) >0x80 JTAG> >0x40 JTAG> >0x30 JTAG>
 >0x40 JTAG> >0x50 JTAG> >0x40 JTAG> -- CPU_WriteMem(4 bytes @ 0xE000EDFC) -- CPU_WriteMem(4 bytes @ 0xE0001028) -- CPU_WriteMem(4 bytes @ 0xE0001038) -- CPU_WriteMem(4 bytes @ 0xE0001048) -- CPU_WriteMem(4 bytes @ 0xE0001058) -- CPU_WriteMem(4 bytes @ 0xE0002000) -- CPU_ReadMem(4 bytes @ 0xE000EDFC) -- CPU_ReadMem(4 bytes @ 0xE0001000) (0039ms, 0655ms total)
T0FA0 000:802 JLINK_Halt()  returns 0x00 (0000ms, 0655ms total)
T0FA0 000:802 JLINK_IsHalted()  returns TRUE (0000ms, 0655ms total)
T0FA0 000:802 JLINK_ReadMemU32(0xE000EDF0, 0x0001 Items, ...) -- CPU_ReadMem(4 bytes @ 0xE000EDF0) -- Data:  03 00 03 00  returns 0x01 (0001ms, 0656ms total)
T0FA0 000:803 JLINK_WriteU32(0xE000EDF0, 0xA05F0003) -- CPU_WriteMem(4 bytes @ 0xE000EDF0)  returns 0x00 (0001ms, 0657ms total)
T0FA0 000:804 JLINK_WriteU32(0xE000EDFC, 0x01000000) -- CPU_WriteMem(4 bytes @ 0xE000EDFC)  returns 0x00 (0001ms, 0658ms total)
T0FA0 000:812 JLINK_GetHWStatus(...)  returns 0x00 (0001ms, 0659ms total)
T0FA0 000:820 JLINK_GetNumBPUnits(Type = 0xFFFFFF00)  returns 0x06 (0000ms, 0659ms total)
T0FA0 000:820 JLINK_GetNumBPUnits(Type = 0xF0)  returns 0x2000 (0000ms, 0659ms total)
T0FA0 000:820 JLINK_GetNumWPUnits()  returns 0x04 (0000ms, 0659ms total)
T0FA0 000:825 JLINK_GetSpeed()  returns 0x7D0 (0000ms, 0659ms total)
T0FA0 000:829 JLINK_ReadMemU32(0xE000E004, 0x0001 Items, ...) -- CPU_ReadMem(4 bytes @ 0xE000E004) -- Data:  01 00 00 00  returns 0x01 (0001ms, 0660ms total)
T0FA0 000:831 JLINK_ReadMemU32(0xE000E004, 0x0001 Items, ...) -- CPU_ReadMem(4 bytes @ 0xE000E004) -- Data:  01 00 00 00  returns 0x01 (0000ms, 0661ms total)
T0FA0 000:831 JLINK_WriteMem(0xE0001000, 0x001C Bytes, ...) -- Data:  01 00 00 00 00 00 00 00 00 00 00 00 00 00 00 00 ... -- CPU_WriteMem(28 bytes @ 0xE0001000)  returns 0x1C (0001ms, 0662ms total)
T0FA0 000:832 JLINK_ReadMem (0xE0001000, 0x001C Bytes, ...) -- CPU_ReadMem(28 bytes @ 0xE0001000) -- Data:  01 00 00 40 00 00 00 00 00 00 00 00 00 00 00 00 ...  returns 0x00 (0001ms, 0663ms total)
T0FA0 000:833 JLINK_Halt()  returns 0x00 (0000ms, 0663ms total)
T0FA0 000:833 JLINK_IsHalted()  returns TRUE (0001ms, 0664ms total)
T0FA0 000:836 JLINK_WriteMem(0x20000000, 0x0164 Bytes, ...) -- Data:  00 BE 0A E0 0D 78 2D 06 68 40 08 24 40 00 00 D3 ... -- CPU_WriteMem(356 bytes @ 0x20000000)  returns 0x164 (0003ms, 0666ms total)
T0FA0 000:839 JLINK_WriteReg(R0, 0x08000000)  returns 0x00 (0000ms, 0666ms total)
T0FA0 000:839 JLINK_WriteReg(R1, 0x007A1200)  returns 0x00 (0000ms, 0666ms total)
T0FA0 000:839 JLINK_WriteReg(R2, 0x00000001)  returns 0x00 (0000ms, 0666ms total)
T0FA0 000:839 JLINK_WriteReg(R3, 0x00000000)  returns 0x00 (0000ms, 0666ms total)
T0FA0 000:839 JLINK_WriteReg(R4, 0x00000000)  returns 0x00 (0000ms, 0666ms total)
T0FA0 000:839 JLINK_WriteReg(R5, 0x00000000)  returns 0x00 (0000ms, 0666ms total)
T0FA0 000:839 JLINK_WriteReg(R6, 0x00000000)  returns 0x00 (0000ms, 0666ms total)
T0FA0 000:839 JLINK_WriteReg(R7, 0x00000000)  returns 0x00 (0000ms, 0666ms total)
T0FA0 000:839 JLINK_WriteReg(R8, 0x00000000)  returns 0x00 (0000ms, 0666ms total)
T0FA0 000:839 JLINK_WriteReg(R9, 0x20000160)  returns 0x00 (0000ms, 0666ms total)
T0FA0 000:839 JLINK_WriteReg(R10, 0x00000000)  returns 0x00 (0000ms, 0666ms total)
T0FA0 000:839 JLINK_WriteReg(R11, 0x00000000)  returns 0x00 (0000ms, 0666ms total)
T0FA0 000:839 JLINK_WriteReg(R12, 0x00000000)  returns 0x00 (0000ms, 0666ms total)
T0FA0 000:839 JLINK_WriteReg(R13 (SP), 0x20000800)  returns 0x00 (0000ms, 0666ms total)
T0FA0 000:839 JLINK_WriteReg(R14, 0x20000001)  returns 0x00 (0000ms, 0666ms total)
T0FA0 000:839 JLINK_WriteReg(R15 (PC), 0x20000038)  returns 0x00 (0000ms, 0666ms total)
T0FA0 000:839 JLINK_WriteReg(XPSR, 0x01000000)  returns 0x00 (0000ms, 0666ms total)
T0FA0 000:839 JLINK_WriteReg(MSP, 0x20000800)  returns 0x00 (0000ms, 0666ms total)
T0FA0 000:839 JLINK_WriteReg(PSP, 0x20000800)  returns 0x00 (0000ms, 0666ms total)
T0FA0 000:839 JLINK_WriteReg(CFBP, 0x00000000)  returns 0x00 (0000ms, 0666ms total)
T0FA0 000:839 JLINK_SetBPEx(Addr = 0x20000000, Type = 0xFFFFFFF2) -- CPU_ReadMem(2 bytes @ 0x20000000)  returns 0x00000001 (0001ms, 0667ms total)
T0FA0 000:840 JLINK_Go() -- CPU_WriteMem(2 bytes @ 0x20000000) -- CPU_WriteMem(4 bytes @ 0xE0002008) -- CPU_WriteMem(4 bytes @ 0xE000200C) -- CPU_WriteMem(4 bytes @ 0xE0002010) -- CPU_WriteMem(4 bytes @ 0xE0002014) -- CPU_WriteMem(4 bytes @ 0xE0002018) -- CPU_WriteMem(4 bytes @ 0xE000201C) -- CPU_WriteMem(4 bytes @ 0xE0001004) (0011ms, 0678ms total)
T0FA0 000:851 JLINK_IsHalted() -- CPU_ReadMem(2 bytes @ 0x20000000)  returns TRUE (0006ms, 0684ms total)
T0FA0 000:857 JLINK_ReadReg(R15 (PC))  returns 0x20000000 (0000ms, 0678ms total)
T0FA0 000:857 JLINK_ClrBPEx(BPHandle = 0x00000001)  returns 0x00 (0000ms, 0678ms total)
T0FA0 000:857 JLINK_ReadReg(R0)  returns 0x00000000 (0000ms, 0678ms total)
T0FA0 000:857 JLINK_WriteReg(R0, 0x08000000)  returns 0x00 (0000ms, 0678ms total)
T0FA0 000:857 JLINK_WriteReg(R1, 0x007A1200)  returns 0x00 (0000ms, 0678ms total)
T0FA0 000:857 JLINK_WriteReg(R2, 0x00000001)  returns 0x00 (0000ms, 0678ms total)
T0FA0 000:857 JLINK_WriteReg(R3, 0x00000000)  returns 0x00 (0000ms, 0678ms total)
T0FA0 000:857 JLINK_WriteReg(R4, 0x00000000)  returns 0x00 (0000ms, 0678ms total)
T0FA0 000:857 JLINK_WriteReg(R5, 0x00000000)  returns 0x00 (0000ms, 0678ms total)
T0FA0 000:857 JLINK_WriteReg(R6, 0x00000000)  returns 0x00 (0000ms, 0678ms total)
T0FA0 000:857 JLINK_WriteReg(R7, 0x00000000)  returns 0x00 (0000ms, 0678ms total)
T0FA0 000:857 JLINK_WriteReg(R8, 0x00000000)  returns 0x00 (0000ms, 0678ms total)
T0FA0 000:857 JLINK_WriteReg(R9, 0x20000160)  returns 0x00 (0000ms, 0678ms total)
T0FA0 000:857 JLINK_WriteReg(R10, 0x00000000)  returns 0x00 (0000ms, 0678ms total)
T0FA0 000:857 JLINK_WriteReg(R11, 0x00000000)  returns 0x00 (0000ms, 0678ms total)
T0FA0 000:857 JLINK_WriteReg(R12, 0x00000000)  returns 0x00 (0000ms, 0678ms total)
T0FA0 000:857 JLINK_WriteReg(R13 (SP), 0x20000800)  returns 0x00 (0000ms, 0678ms total)
T0FA0 000:857 JLINK_WriteReg(R14, 0x20000001)  returns 0x00 (0000ms, 0678ms total)
T0FA0 000:857 JLINK_WriteReg(R15 (PC), 0x2000007C)  returns 0x00 (0000ms, 0678ms total)
T0FA0 000:857 JLINK_WriteReg(XPSR, 0x01000000)  returns 0x00 (0000ms, 0678ms total)
T0FA0 000:857 JLINK_WriteReg(MSP, 0x20000800)  returns 0x00 (0000ms, 0678ms total)
T0FA0 000:857 JLINK_WriteReg(PSP, 0x20000800)  returns 0x00 (0000ms, 0678ms total)
T0FA0 000:857 JLINK_WriteReg(CFBP, 0x00000000)  returns 0x00 (0000ms, 0678ms total)
T0FA0 000:857 JLINK_SetBPEx(Addr = 0x20000000, Type = 0xFFFFFFF2)  returns 0x00000002 (0000ms, 0678ms total)
T0FA0 000:857 JLINK_Go() (0003ms, 0681ms total)
T0FA0 000:860 JLINK_IsHalted()  returns FALSE (0001ms, 0682ms total)
T0FA0 000:905 JLINK_IsHalted() -- CPU_ReadMem(2 bytes @ 0x20000000)  returns TRUE (0006ms, 0687ms total)
T0FA0 000:911 JLINK_ReadReg(R15 (PC))  returns 0x20000000 (0000ms, 0681ms total)
T0FA0 000:911 JLINK_ClrBPEx(BPHandle = 0x00000002)  returns 0x00 (0000ms, 0681ms total)
T0FA0 000:911 JLINK_ReadReg(R0)  returns 0x00000000 (0000ms, 0681ms total)
T0FA0 000:961 JLINK_WriteReg(R0, 0x00000001)  returns 0x00 (0000ms, 0681ms total)
T0FA0 000:961 JLINK_WriteReg(R1, 0x007A1200)  returns 0x00 (0000ms, 0681ms total)
T0FA0 000:961 JLINK_WriteReg(R2, 0x00000001)  returns 0x00 (0000ms, 0681ms total)
T0FA0 000:961 JLINK_WriteReg(R3, 0x00000000)  returns 0x00 (0000ms, 0681ms total)
T0FA0 000:961 JLINK_WriteReg(R4, 0x00000000)  returns 0x00 (0000ms, 0681ms total)
T0FA0 000:961 JLINK_WriteReg(R5, 0x00000000)  returns 0x00 (0000ms, 0681ms total)
T0FA0 000:961 JLINK_WriteReg(R6, 0x00000000)  returns 0x00 (0000ms, 0681ms total)
T0FA0 000:961 JLINK_WriteReg(R7, 0x00000000)  returns 0x00 (0000ms, 0681ms total)
T0FA0 000:961 JLINK_WriteReg(R8, 0x00000000)  returns 0x00 (0000ms, 0681ms total)
T0FA0 000:961 JLINK_WriteReg(R9, 0x20000160)  returns 0x00 (0000ms, 0681ms total)
T0FA0 000:961 JLINK_WriteReg(R10, 0x00000000)  returns 0x00 (0000ms, 0681ms total)
T0FA0 000:961 JLINK_WriteReg(R11, 0x00000000)  returns 0x00 (0001ms, 0682ms total)
T0FA0 000:962 JLINK_WriteReg(R12, 0x00000000)  returns 0x00 (0000ms, 0682ms total)
T0FA0 000:962 JLINK_WriteReg(R13 (SP), 0x20000800)  returns 0x00 (0000ms, 0682ms total)
T0FA0 000:962 JLINK_WriteReg(R14, 0x20000001)  returns 0x00 (0000ms, 0682ms total)
T0FA0 000:962 JLINK_WriteReg(R15 (PC), 0x2000006A)  returns 0x00 (0000ms, 0682ms total)
T0FA0 000:962 JLINK_WriteReg(XPSR, 0x01000000)  returns 0x00 (0000ms, 0682ms total)
T0FA0 000:962 JLINK_WriteReg(MSP, 0x20000800)  returns 0x00 (0000ms, 0682ms total)
T0FA0 000:962 JLINK_WriteReg(PSP, 0x20000800)  returns 0x00 (0000ms, 0682ms total)
T0FA0 000:962 JLINK_WriteReg(CFBP, 0x00000000)  returns 0x00 (0000ms, 0682ms total)
T0FA0 000:962 JLINK_SetBPEx(Addr = 0x20000000, Type = 0xFFFFFFF2)  returns 0x00000003 (0000ms, 0682ms total)
T0FA0 000:962 JLINK_Go() (0002ms, 0684ms total)
T0FA0 000:964 JLINK_IsHalted() -- CPU_ReadMem(2 bytes @ 0x20000000)  returns TRUE (0006ms, 0690ms total)
T0FA0 000:970 JLINK_ReadReg(R15 (PC))  returns 0x20000000 (0000ms, 0684ms total)
T0FA0 000:970 JLINK_ClrBPEx(BPHandle = 0x00000003)  returns 0x00 (0000ms, 0684ms total)
T0FA0 000:970 JLINK_ReadReg(R0)  returns 0x00000000 (0000ms, 0684ms total)
T0FA0 000:975 JLINK_WriteMem(0x20000000, 0x0164 Bytes, ...) -- Data:  00 BE 0A E0 0D 78 2D 06 68 40 08 24 40 00 00 D3 ... -- CPU_WriteMem(356 bytes @ 0x20000000)  returns 0x164 (0003ms, 0687ms total)
T0FA0 000:978 JLINK_WriteReg(R0, 0x08000000)  returns 0x00 (0000ms, 0687ms total)
T0FA0 000:978 JLINK_WriteReg(R1, 0x007A1200)  returns 0x00 (0000ms, 0687ms total)
T0FA0 000:978 JLINK_WriteReg(R2, 0x00000002)  returns 0x00 (0000ms, 0687ms total)
T0FA0 000:978 JLINK_WriteReg(R3, 0x00000000)  returns 0x00 (0000ms, 0687ms total)
T0FA0 000:978 JLINK_WriteReg(R4, 0x00000000)  returns 0x00 (0000ms, 0687ms total)
T0FA0 000:978 JLINK_WriteReg(R5, 0x00000000)  returns 0x00 (0001ms, 0688ms total)
T0FA0 000:979 JLINK_WriteReg(R6, 0x00000000)  returns 0x00 (0000ms, 0688ms total)
T0FA0 000:979 JLINK_WriteReg(R7, 0x00000000)  returns 0x00 (0000ms, 0688ms total)
T0FA0 000:979 JLINK_WriteReg(R8, 0x00000000)  returns 0x00 (0000ms, 0688ms total)
T0FA0 000:979 JLINK_WriteReg(R9, 0x20000160)  returns 0x00 (0000ms, 0688ms total)
T0FA0 000:979 JLINK_WriteReg(R10, 0x00000000)  returns 0x00 (0000ms, 0688ms total)
T0FA0 000:979 JLINK_WriteReg(R11, 0x00000000)  returns 0x00 (0000ms, 0688ms total)
T0FA0 000:979 JLINK_WriteReg(R12, 0x00000000)  returns 0x00 (0000ms, 0688ms total)
T0FA0 000:979 JLINK_WriteReg(R13 (SP), 0x20000800)  returns 0x00 (0000ms, 0688ms total)
T0FA0 000:979 JLINK_WriteReg(R14, 0x20000001)  returns 0x00 (0000ms, 0688ms total)
T0FA0 000:979 JLINK_WriteReg(R15 (PC), 0x20000038)  returns 0x00 (0000ms, 0688ms total)
T0FA0 000:979 JLINK_WriteReg(XPSR, 0x01000000)  returns 0x00 (0000ms, 0688ms total)
T0FA0 000:979 JLINK_WriteReg(MSP, 0x20000800)  returns 0x00 (0000ms, 0688ms total)
T0FA0 000:979 JLINK_WriteReg(PSP, 0x20000800)  returns 0x00 (0000ms, 0688ms total)
T0FA0 000:979 JLINK_WriteReg(CFBP, 0x00000000)  returns 0x00 (0000ms, 0688ms total)
T0FA0 000:979 JLINK_SetBPEx(Addr = 0x20000000, Type = 0xFFFFFFF2) -- CPU_ReadMem(2 bytes @ 0x20000000)  returns 0x00000004 (0000ms, 0688ms total)
T0FA0 000:979 JLINK_Go() -- CPU_WriteMem(2 bytes @ 0x20000000) (0003ms, 0691ms total)
T0FA0 000:982 JLINK_IsHalted() -- CPU_ReadMem(2 bytes @ 0x20000000)  returns TRUE (0006ms, 0697ms total)
T0FA0 000:988 JLINK_ReadReg(R15 (PC))  returns 0x20000000 (0000ms, 0691ms total)
T0FA0 000:988 JLINK_ClrBPEx(BPHandle = 0x00000004)  returns 0x00 (0000ms, 0691ms total)
T0FA0 000:988 JLINK_ReadReg(R0)  returns 0x00000000 (0000ms, 0691ms total)
T0FA0 000:988 JLINK_WriteMem(0x20000164, 0x0400 Bytes, ...) -- Data:  C0 06 00 20 29 14 00 08 4D 08 00 08 4F 08 00 08 ... -- CPU_WriteMem(1024 bytes @ 0x20000164)  returns 0x400 (0007ms, 0698ms total)
T0FA0 000:995 JLINK_WriteReg(R0, 0x08000000)  returns 0x00 (0000ms, 0698ms total)
T0FA0 000:995 JLINK_WriteReg(R1, 0x00000400)  returns 0x00 (0000ms, 0698ms total)
T0FA0 000:995 JLINK_WriteReg(R2, 0x20000164)  returns 0x00 (0000ms, 0698ms total)
T0FA0 000:995 JLINK_WriteReg(R3, 0x00000000)  returns 0x00 (0000ms, 0698ms total)
T0FA0 000:995 JLINK_WriteReg(R4, 0x00000000)  returns 0x00 (0000ms, 0698ms total)
T0FA0 000:995 JLINK_WriteReg(R5, 0x00000000)  returns 0x00 (0000ms, 0698ms total)
T0FA0 000:995 JLINK_WriteReg(R6, 0x00000000)  returns 0x00 (0000ms, 0698ms total)
T0FA0 000:995 JLINK_WriteReg(R7, 0x00000000)  returns 0x00 (0000ms, 0698ms total)
T0FA0 000:995 JLINK_WriteReg(R8, 0x00000000)  returns 0x00 (0000ms, 0698ms total)
T0FA0 000:995 JLINK_WriteReg(R9, 0x20000160)  returns 0x00 (0000ms, 0698ms total)
T0FA0 000:995 JLINK_WriteReg(R10, 0x00000000)  returns 0x00 (0000ms, 0698ms total)
T0FA0 000:995 JLINK_WriteReg(R11, 0x00000000)  returns 0x00 (0000ms, 0698ms total)
T0FA0 000:995 JLINK_WriteReg(R12, 0x00000000)  returns 0x00 (0000ms, 0698ms total)
T0FA0 000:995 JLINK_WriteReg(R13 (SP), 0x20000800)  returns 0x00 (0000ms, 0698ms total)
T0FA0 000:995 JLINK_WriteReg(R14, 0x20000001)  returns 0x00 (0000ms, 0698ms total)
T0FA0 000:995 JLINK_WriteReg(R15 (PC), 0x200000F4)  returns 0x00 (0000ms, 0698ms total)
T0FA0 000:995 JLINK_WriteReg(XPSR, 0x01000000)  returns 0x00 (0000ms, 0698ms total)
T0FA0 000:995 JLINK_WriteReg(MSP, 0x20000800)  returns 0x00 (0000ms, 0698ms total)
T0FA0 000:995 JLINK_WriteReg(PSP, 0x20000800)  returns 0x00 (0000ms, 0698ms total)
T0FA0 000:995 JLINK_WriteReg(CFBP, 0x00000000)  returns 0x00 (0000ms, 0698ms total)
T0FA0 000:995 JLINK_SetBPEx(Addr = 0x20000000, Type = 0xFFFFFFF2)  returns 0x00000005 (0000ms, 0698ms total)
T0FA0 000:995 JLINK_Go() (0003ms, 0701ms total)
T0FA0 000:998 JLINK_IsHalted()  returns FALSE (0001ms, 0702ms total)
T0FA0 001:011 JLINK_IsHalted()  returns FALSE (0002ms, 0703ms total)
T0FA0 001:014 JLINK_IsHalted()  returns FALSE (0001ms, 0702ms total)
T0FA0 001:016 JLINK_IsHalted()  returns FALSE (0001ms, 0702ms total)
T0FA0 001:018 JLINK_IsHalted()  returns FALSE (0001ms, 0702ms total)
T0FA0 001:020 JLINK_IsHalted()  returns FALSE (0001ms, 0702ms total)
T0FA0 001:024 JLINK_IsHalted()  returns FALSE (0001ms, 0702ms total)
T0FA0 001:026 JLINK_IsHalted()  returns FALSE (0001ms, 0702ms total)
T0FA0 001:028 JLINK_IsHalted()  returns FALSE (0001ms, 0702ms total)
T0FA0 001:030 JLINK_IsHalted() -- CPU_ReadMem(2 bytes @ 0x20000000)  returns TRUE (0006ms, 0707ms total)
T0FA0 001:036 JLINK_ReadReg(R15 (PC))  returns 0x20000000 (0000ms, 0701ms total)
T0FA0 001:036 JLINK_ClrBPEx(BPHandle = 0x00000005)  returns 0x00 (0000ms, 0701ms total)
T0FA0 001:036 JLINK_ReadReg(R0)  returns 0x00000000 (0000ms, 0701ms total)
T0FA0 001:036 JLINK_WriteMem(0x20000164, 0x0400 Bytes, ...) -- Data:  77 49 08 60 FF F7 E8 FE 75 48 00 68 40 F0 40 00 ... -- CPU_WriteMem(1024 bytes @ 0x20000164)  returns 0x400 (0007ms, 0708ms total)
T0FA0 001:043 JLINK_WriteReg(R0, 0x08000400)  returns 0x00 (0000ms, 0708ms total)
T0FA0 001:043 JLINK_WriteReg(R1, 0x00000400)  returns 0x00 (0000ms, 0708ms total)
T0FA0 001:043 JLINK_WriteReg(R2, 0x20000164)  returns 0x00 (0000ms, 0708ms total)
T0FA0 001:043 JLINK_WriteReg(R3, 0x00000000)  returns 0x00 (0000ms, 0708ms total)
T0FA0 001:043 JLINK_WriteReg(R4, 0x00000000)  returns 0x00 (0000ms, 0708ms total)
T0FA0 001:043 JLINK_WriteReg(R5, 0x00000000)  returns 0x00 (0000ms, 0708ms total)
T0FA0 001:043 JLINK_WriteReg(R6, 0x00000000)  returns 0x00 (0000ms, 0708ms total)
T0FA0 001:043 JLINK_WriteReg(R7, 0x00000000)  returns 0x00 (0000ms, 0708ms total)
T0FA0 001:043 JLINK_WriteReg(R8, 0x00000000)  returns 0x00 (0000ms, 0708ms total)
T0FA0 001:043 JLINK_WriteReg(R9, 0x20000160)  returns 0x00 (0000ms, 0708ms total)
T0FA0 001:043 JLINK_WriteReg(R10, 0x00000000)  returns 0x00 (0000ms, 0708ms total)
T0FA0 001:043 JLINK_WriteReg(R11, 0x00000000)  returns 0x00 (0000ms, 0708ms total)
T0FA0 001:043 JLINK_WriteReg(R12, 0x00000000)  returns 0x00 (0000ms, 0708ms total)
T0FA0 001:043 JLINK_WriteReg(R13 (SP), 0x20000800)  returns 0x00 (0000ms, 0708ms total)
T0FA0 001:043 JLINK_WriteReg(R14, 0x20000001)  returns 0x00 (0000ms, 0708ms total)
T0FA0 001:043 JLINK_WriteReg(R15 (PC), 0x200000F4)  returns 0x00 (0000ms, 0708ms total)
T0FA0 001:043 JLINK_WriteReg(XPSR, 0x01000000)  returns 0x00 (0000ms, 0708ms total)
T0FA0 001:043 JLINK_WriteReg(MSP, 0x20000800)  returns 0x00 (0000ms, 0708ms total)
T0FA0 001:043 JLINK_WriteReg(PSP, 0x20000800)  returns 0x00 (0000ms, 0708ms total)
T0FA0 001:043 JLINK_WriteReg(CFBP, 0x00000000)  returns 0x00 (0000ms, 0708ms total)
T0FA0 001:043 JLINK_SetBPEx(Addr = 0x20000000, Type = 0xFFFFFFF2)  returns 0x00000006 (0000ms, 0708ms total)
T0FA0 001:043 JLINK_Go() (0002ms, 0710ms total)
T0FA0 001:045 JLINK_IsHalted()  returns FALSE (0001ms, 0711ms total)
T0FA0 001:049 JLINK_IsHalted()  returns FALSE (0001ms, 0711ms total)
T0FA0 001:052 JLINK_IsHalted()  returns FALSE (0001ms, 0711ms total)
T0FA0 001:054 JLINK_IsHalted()  returns FALSE (0001ms, 0711ms total)
T0FA0 001:056 JLINK_IsHalted()  returns FALSE (0001ms, 0711ms total)
T0FA0 001:058 JLINK_IsHalted()  returns FALSE (0001ms, 0711ms total)
T0FA0 001:060 JLINK_IsHalted()  returns FALSE (0001ms, 0711ms total)
T0FA0 001:062 JLINK_IsHalted()  returns FALSE (0001ms, 0711ms total)
T0FA0 001:064 JLINK_IsHalted()  returns FALSE (0001ms, 0711ms total)
T0FA0 001:067 JLINK_IsHalted()  returns FALSE (0001ms, 0711ms total)
T0FA0 001:069 JLINK_IsHalted()  returns FALSE (0001ms, 0711ms total)
T0FA0 001:071 JLINK_IsHalted()  returns FALSE (0001ms, 0711ms total)
T0FA0 001:073 JLINK_IsHalted()  returns FALSE (0001ms, 0711ms total)
T0FA0 001:075 JLINK_IsHalted()  returns FALSE (0001ms, 0711ms total)
T0FA0 001:077 JLINK_IsHalted() -- CPU_ReadMem(2 bytes @ 0x20000000)  returns TRUE (0005ms, 0715ms total)
T0FA0 001:082 JLINK_ReadReg(R15 (PC))  returns 0x20000000 (0000ms, 0710ms total)
T0FA0 001:082 JLINK_ClrBPEx(BPHandle = 0x00000006)  returns 0x00 (0000ms, 0710ms total)
T0FA0 001:083 JLINK_ReadReg(R0)  returns 0x00000000 (0000ms, 0711ms total)
T0FA0 001:083 JLINK_WriteMem(0x20000164, 0x0400 Bytes, ...) -- Data:  B0 F9 00 30 09 48 B0 F9 00 20 07 48 B0 F9 00 10 ... -- CPU_WriteMem(1024 bytes @ 0x20000164)  returns 0x400 (0006ms, 0717ms total)
T0FA0 001:089 JLINK_WriteReg(R0, 0x08000800)  returns 0x00 (0000ms, 0717ms total)
T0FA0 001:089 JLINK_WriteReg(R1, 0x00000400)  returns 0x00 (0000ms, 0717ms total)
T0FA0 001:089 JLINK_WriteReg(R2, 0x20000164)  returns 0x00 (0000ms, 0717ms total)
T0FA0 001:089 JLINK_WriteReg(R3, 0x00000000)  returns 0x00 (0001ms, 0718ms total)
T0FA0 001:090 JLINK_WriteReg(R4, 0x00000000)  returns 0x00 (0000ms, 0718ms total)
T0FA0 001:090 JLINK_WriteReg(R5, 0x00000000)  returns 0x00 (0000ms, 0718ms total)
T0FA0 001:090 JLINK_WriteReg(R6, 0x00000000)  returns 0x00 (0000ms, 0718ms total)
T0FA0 001:090 JLINK_WriteReg(R7, 0x00000000)  returns 0x00 (0000ms, 0718ms total)
T0FA0 001:090 JLINK_WriteReg(R8, 0x00000000)  returns 0x00 (0000ms, 0718ms total)
T0FA0 001:090 JLINK_WriteReg(R9, 0x20000160)  returns 0x00 (0000ms, 0718ms total)
T0FA0 001:090 JLINK_WriteReg(R10, 0x00000000)  returns 0x00 (0000ms, 0718ms total)
T0FA0 001:090 JLINK_WriteReg(R11, 0x00000000)  returns 0x00 (0000ms, 0718ms total)
T0FA0 001:090 JLINK_WriteReg(R12, 0x00000000)  returns 0x00 (0000ms, 0718ms total)
T0FA0 001:090 JLINK_WriteReg(R13 (SP), 0x20000800)  returns 0x00 (0000ms, 0718ms total)
T0FA0 001:090 JLINK_WriteReg(R14, 0x20000001)  returns 0x00 (0000ms, 0718ms total)
T0FA0 001:090 JLINK_WriteReg(R15 (PC), 0x200000F4)  returns 0x00 (0000ms, 0718ms total)
T0FA0 001:090 JLINK_WriteReg(XPSR, 0x01000000)  returns 0x00 (0000ms, 0718ms total)
T0FA0 001:090 JLINK_WriteReg(MSP, 0x20000800)  returns 0x00 (0000ms, 0718ms total)
T0FA0 001:090 JLINK_WriteReg(PSP, 0x20000800)  returns 0x00 (0000ms, 0718ms total)
T0FA0 001:090 JLINK_WriteReg(CFBP, 0x00000000)  returns 0x00 (0000ms, 0718ms total)
T0FA0 001:090 JLINK_SetBPEx(Addr = 0x20000000, Type = 0xFFFFFFF2)  returns 0x00000007 (0000ms, 0718ms total)
T0FA0 001:090 JLINK_Go() (0002ms, 0720ms total)
T0FA0 001:092 JLINK_IsHalted()  returns FALSE (0001ms, 0721ms total)
T0FA0 001:095 JLINK_IsHalted()  returns FALSE (0001ms, 0721ms total)
T0FA0 001:098 JLINK_IsHalted()  returns FALSE (0001ms, 0721ms total)
T0FA0 001:100 JLINK_IsHalted()  returns FALSE (0001ms, 0721ms total)
T0FA0 001:102 JLINK_IsHalted()  returns FALSE (0001ms, 0721ms total)
T0FA0 001:104 JLINK_IsHalted()  returns FALSE (0001ms, 0721ms total)
T0FA0 001:106 JLINK_IsHalted()  returns FALSE (0001ms, 0721ms total)
T0FA0 001:108 JLINK_IsHalted()  returns FALSE (0001ms, 0721ms total)
T0FA0 001:110 JLINK_IsHalted()  returns FALSE (0001ms, 0721ms total)
T0FA0 001:112 JLINK_IsHalted()  returns FALSE (0001ms, 0721ms total)
T0FA0 001:121 JLINK_IsHalted()  returns FALSE (0001ms, 0721ms total)
T0FA0 001:123 JLINK_IsHalted() -- CPU_ReadMem(2 bytes @ 0x20000000)  returns TRUE (0006ms, 0726ms total)
T0FA0 001:129 JLINK_ReadReg(R15 (PC))  returns 0x20000000 (0000ms, 0720ms total)
T0FA0 001:129 JLINK_ClrBPEx(BPHandle = 0x00000007)  returns 0x00 (0000ms, 0720ms total)
T0FA0 001:129 JLINK_ReadReg(R0)  returns 0x00000000 (0000ms, 0720ms total)
T0FA0 001:129 JLINK_WriteMem(0x20000164, 0x0400 Bytes, ...) -- Data:  1C 4E F1 61 01 E0 1B 4E 71 60 F0 BD 30 B5 00 22 ... -- CPU_WriteMem(1024 bytes @ 0x20000164)  returns 0x400 (0006ms, 0726ms total)
T0FA0 001:135 JLINK_WriteReg(R0, 0x08000C00)  returns 0x00 (0000ms, 0726ms total)
T0FA0 001:135 JLINK_WriteReg(R1, 0x00000400)  returns 0x00 (0000ms, 0726ms total)
T0FA0 001:135 JLINK_WriteReg(R2, 0x20000164)  returns 0x00 (0000ms, 0726ms total)
T0FA0 001:135 JLINK_WriteReg(R3, 0x00000000)  returns 0x00 (0000ms, 0726ms total)
T0FA0 001:135 JLINK_WriteReg(R4, 0x00000000)  returns 0x00 (0000ms, 0726ms total)
T0FA0 001:135 JLINK_WriteReg(R5, 0x00000000)  returns 0x00 (0001ms, 0727ms total)
T0FA0 001:136 JLINK_WriteReg(R6, 0x00000000)  returns 0x00 (0000ms, 0727ms total)
T0FA0 001:136 JLINK_WriteReg(R7, 0x00000000)  returns 0x00 (0000ms, 0727ms total)
T0FA0 001:136 JLINK_WriteReg(R8, 0x00000000)  returns 0x00 (0000ms, 0727ms total)
T0FA0 001:136 JLINK_WriteReg(R9, 0x20000160)  returns 0x00 (0000ms, 0727ms total)
T0FA0 001:136 JLINK_WriteReg(R10, 0x00000000)  returns 0x00 (0000ms, 0727ms total)
T0FA0 001:136 JLINK_WriteReg(R11, 0x00000000)  returns 0x00 (0000ms, 0727ms total)
T0FA0 001:136 JLINK_WriteReg(R12, 0x00000000)  returns 0x00 (0000ms, 0727ms total)
T0FA0 001:136 JLINK_WriteReg(R13 (SP), 0x20000800)  returns 0x00 (0000ms, 0727ms total)
T0FA0 001:136 JLINK_WriteReg(R14, 0x20000001)  returns 0x00 (0000ms, 0727ms total)
T0FA0 001:136 JLINK_WriteReg(R15 (PC), 0x200000F4)  returns 0x00 (0000ms, 0727ms total)
T0FA0 001:136 JLINK_WriteReg(XPSR, 0x01000000)  returns 0x00 (0000ms, 0727ms total)
T0FA0 001:136 JLINK_WriteReg(MSP, 0x20000800)  returns 0x00 (0000ms, 0727ms total)
T0FA0 001:136 JLINK_WriteReg(PSP, 0x20000800)  returns 0x00 (0000ms, 0727ms total)
T0FA0 001:136 JLINK_WriteReg(CFBP, 0x00000000)  returns 0x00 (0000ms, 0727ms total)
T0FA0 001:136 JLINK_SetBPEx(Addr = 0x20000000, Type = 0xFFFFFFF2)  returns 0x00000008 (0000ms, 0727ms total)
T0FA0 001:136 JLINK_Go() (0002ms, 0729ms total)
T0FA0 001:138 JLINK_IsHalted()  returns FALSE (0001ms, 0730ms total)
T0FA0 001:142 JLINK_IsHalted()  returns FALSE (0001ms, 0730ms total)
T0FA0 001:145 JLINK_IsHalted()  returns FALSE (0001ms, 0730ms total)
T0FA0 001:147 JLINK_IsHalted()  returns FALSE (0001ms, 0730ms total)
T0FA0 001:149 JLINK_IsHalted()  returns FALSE (0001ms, 0730ms total)
T0FA0 001:151 JLINK_IsHalted()  returns FALSE (0001ms, 0730ms total)
T0FA0 001:153 JLINK_IsHalted()  returns FALSE (0001ms, 0730ms total)
T0FA0 001:155 JLINK_IsHalted()  returns FALSE (0001ms, 0730ms total)
T0FA0 001:157 JLINK_IsHalted()  returns FALSE (0001ms, 0730ms total)
T0FA0 001:161 JLINK_IsHalted()  returns FALSE (0001ms, 0730ms total)
T0FA0 001:163 JLINK_IsHalted()  returns FALSE (0001ms, 0730ms total)
T0FA0 001:165 JLINK_IsHalted()  returns FALSE (0001ms, 0730ms total)
T0FA0 001:167 JLINK_IsHalted()  returns FALSE (0001ms, 0730ms total)
T0FA0 001:169 JLINK_IsHalted() -- CPU_ReadMem(2 bytes @ 0x20000000)  returns TRUE (0006ms, 0735ms total)
T0FA0 001:175 JLINK_ReadReg(R15 (PC))  returns 0x20000000 (0000ms, 0729ms total)
T0FA0 001:175 JLINK_ClrBPEx(BPHandle = 0x00000008)  returns 0x00 (0000ms, 0729ms total)
T0FA0 001:175 JLINK_ReadReg(R0)  returns 0x00000000 (0000ms, 0729ms total)
T0FA0 001:176 JLINK_WriteMem(0x20000164, 0x0400 Bytes, ...) -- Data:  00 00 FF F8 FF FF F6 FE 00 00 42 42 80 04 42 42 ... -- CPU_WriteMem(1024 bytes @ 0x20000164)  returns 0x400 (0006ms, 0735ms total)
T0FA0 001:182 JLINK_WriteReg(R0, 0x08001000)  returns 0x00 (0000ms, 0735ms total)
T0FA0 001:182 JLINK_WriteReg(R1, 0x00000400)  returns 0x00 (0000ms, 0735ms total)
T0FA0 001:182 JLINK_WriteReg(R2, 0x20000164)  returns 0x00 (0000ms, 0735ms total)
T0FA0 001:182 JLINK_WriteReg(R3, 0x00000000)  returns 0x00 (0000ms, 0735ms total)
T0FA0 001:182 JLINK_WriteReg(R4, 0x00000000)  returns 0x00 (0000ms, 0735ms total)
T0FA0 001:183 JLINK_WriteReg(R5, 0x00000000)  returns 0x00 (0000ms, 0736ms total)
T0FA0 001:183 JLINK_WriteReg(R6, 0x00000000)  returns 0x00 (0000ms, 0736ms total)
T0FA0 001:183 JLINK_WriteReg(R7, 0x00000000)  returns 0x00 (0000ms, 0736ms total)
T0FA0 001:183 JLINK_WriteReg(R8, 0x00000000)  returns 0x00 (0000ms, 0736ms total)
T0FA0 001:183 JLINK_WriteReg(R9, 0x20000160)  returns 0x00 (0000ms, 0736ms total)
T0FA0 001:183 JLINK_WriteReg(R10, 0x00000000)  returns 0x00 (0000ms, 0736ms total)
T0FA0 001:183 JLINK_WriteReg(R11, 0x00000000)  returns 0x00 (0000ms, 0736ms total)
T0FA0 001:183 JLINK_WriteReg(R12, 0x00000000)  returns 0x00 (0000ms, 0736ms total)
T0FA0 001:183 JLINK_WriteReg(R13 (SP), 0x20000800)  returns 0x00 (0000ms, 0736ms total)
T0FA0 001:183 JLINK_WriteReg(R14, 0x20000001)  returns 0x00 (0000ms, 0736ms total)
T0FA0 001:183 JLINK_WriteReg(R15 (PC), 0x200000F4)  returns 0x00 (0000ms, 0736ms total)
T0FA0 001:183 JLINK_WriteReg(XPSR, 0x01000000)  returns 0x00 (0000ms, 0736ms total)
T0FA0 001:183 JLINK_WriteReg(MSP, 0x20000800)  returns 0x00 (0000ms, 0736ms total)
T0FA0 001:183 JLINK_WriteReg(PSP, 0x20000800)  returns 0x00 (0000ms, 0736ms total)
T0FA0 001:183 JLINK_WriteReg(CFBP, 0x00000000)  returns 0x00 (0000ms, 0736ms total)
T0FA0 001:183 JLINK_SetBPEx(Addr = 0x20000000, Type = 0xFFFFFFF2)  returns 0x00000009 (0000ms, 0736ms total)
T0FA0 001:183 JLINK_Go() (0002ms, 0738ms total)
T0FA0 001:185 JLINK_IsHalted()  returns FALSE (0001ms, 0739ms total)
T0FA0 001:189 JLINK_IsHalted()  returns FALSE (0001ms, 0739ms total)
T0FA0 001:192 JLINK_IsHalted()  returns FALSE (0001ms, 0739ms total)
T0FA0 001:194 JLINK_IsHalted()  returns FALSE (0001ms, 0739ms total)
T0FA0 001:196 JLINK_IsHalted()  returns FALSE (0001ms, 0739ms total)
T0FA0 001:198 JLINK_IsHalted()  returns FALSE (0001ms, 0739ms total)
T0FA0 001:200 JLINK_IsHalted()  returns FALSE (0001ms, 0739ms total)
T0FA0 001:202 JLINK_IsHalted()  returns FALSE (0001ms, 0739ms total)
T0FA0 001:204 JLINK_IsHalted()  returns FALSE (0001ms, 0739ms total)
T0FA0 001:207 JLINK_IsHalted()  returns FALSE (0001ms, 0739ms total)
T0FA0 001:209 JLINK_IsHalted()  returns FALSE (0001ms, 0739ms total)
T0FA0 001:211 JLINK_IsHalted()  returns FALSE (0001ms, 0739ms total)
T0FA0 001:213 JLINK_IsHalted()  returns FALSE (0001ms, 0739ms total)
T0FA0 001:215 JLINK_IsHalted()  returns FALSE (0001ms, 0739ms total)
T0FA0 001:217 JLINK_IsHalted() -- CPU_ReadMem(2 bytes @ 0x20000000)  returns TRUE (0006ms, 0744ms total)
T0FA0 001:223 JLINK_ReadReg(R15 (PC))  returns 0x20000000 (0000ms, 0738ms total)
T0FA0 001:223 JLINK_ClrBPEx(BPHandle = 0x00000009)  returns 0x00 (0000ms, 0738ms total)
T0FA0 001:223 JLINK_ReadReg(R0)  returns 0x00000000 (0000ms, 0738ms total)
T0FA0 001:223 JLINK_WriteMem(0x20000164, 0x0400 Bytes, ...) -- Data:  00 D1 00 BF 0A 12 01 24 94 40 A3 B2 DC 43 04 80 ... -- CPU_WriteMem(1024 bytes @ 0x20000164)  returns 0x400 (0007ms, 0745ms total)
T0FA0 001:230 JLINK_WriteReg(R0, 0x08001400)  returns 0x00 (0000ms, 0745ms total)
T0FA0 001:230 JLINK_WriteReg(R1, 0x00000328)  returns 0x00 (0000ms, 0745ms total)
T0FA0 001:230 JLINK_WriteReg(R2, 0x20000164)  returns 0x00 (0000ms, 0745ms total)
T0FA0 001:230 JLINK_WriteReg(R3, 0x00000000)  returns 0x00 (0000ms, 0745ms total)
T0FA0 001:230 JLINK_WriteReg(R4, 0x00000000)  returns 0x00 (0000ms, 0745ms total)
T0FA0 001:230 JLINK_WriteReg(R5, 0x00000000)  returns 0x00 (0000ms, 0745ms total)
T0FA0 001:230 JLINK_WriteReg(R6, 0x00000000)  returns 0x00 (0000ms, 0745ms total)
T0FA0 001:230 JLINK_WriteReg(R7, 0x00000000)  returns 0x00 (0000ms, 0745ms total)
T0FA0 001:230 JLINK_WriteReg(R8, 0x00000000)  returns 0x00 (0000ms, 0745ms total)
T0FA0 001:230 JLINK_WriteReg(R9, 0x20000160)  returns 0x00 (0000ms, 0745ms total)
T0FA0 001:230 JLINK_WriteReg(R10, 0x00000000)  returns 0x00 (0000ms, 0745ms total)
T0FA0 001:230 JLINK_WriteReg(R11, 0x00000000)  returns 0x00 (0000ms, 0745ms total)
T0FA0 001:230 JLINK_WriteReg(R12, 0x00000000)  returns 0x00 (0000ms, 0745ms total)
T0FA0 001:230 JLINK_WriteReg(R13 (SP), 0x20000800)  returns 0x00 (0000ms, 0745ms total)
T0FA0 001:230 JLINK_WriteReg(R14, 0x20000001)  returns 0x00 (0000ms, 0745ms total)
T0FA0 001:230 JLINK_WriteReg(R15 (PC), 0x200000F4)  returns 0x00 (0000ms, 0745ms total)
T0FA0 001:230 JLINK_WriteReg(XPSR, 0x01000000)  returns 0x00 (0000ms, 0745ms total)
T0FA0 001:230 JLINK_WriteReg(MSP, 0x20000800)  returns 0x00 (0000ms, 0745ms total)
T0FA0 001:230 JLINK_WriteReg(PSP, 0x20000800)  returns 0x00 (0000ms, 0745ms total)
T0FA0 001:230 JLINK_WriteReg(CFBP, 0x00000000)  returns 0x00 (0000ms, 0745ms total)
T0FA0 001:230 JLINK_SetBPEx(Addr = 0x20000000, Type = 0xFFFFFFF2)  returns 0x0000000A (0000ms, 0745ms total)
T0FA0 001:230 JLINK_Go() (0003ms, 0748ms total)
T0FA0 001:233 JLINK_IsHalted()  returns FALSE (0001ms, 0749ms total)
T0FA0 001:243 JLINK_IsHalted()  returns FALSE (0001ms, 0749ms total)
T0FA0 001:245 JLINK_IsHalted()  returns FALSE (0001ms, 0749ms total)
T0FA0 001:247 JLINK_IsHalted()  returns FALSE (0001ms, 0749ms total)
T0FA0 001:249 JLINK_IsHalted()  returns FALSE (0001ms, 0749ms total)
T0FA0 001:251 JLINK_IsHalted()  returns FALSE (0001ms, 0749ms total)
T0FA0 001:254 JLINK_IsHalted()  returns FALSE (0001ms, 0749ms total)
T0FA0 001:256 JLINK_IsHalted()  returns FALSE (0001ms, 0749ms total)
T0FA0 001:258 JLINK_IsHalted() -- CPU_ReadMem(2 bytes @ 0x20000000)  returns TRUE (0006ms, 0754ms total)
T0FA0 001:264 JLINK_ReadReg(R15 (PC))  returns 0x20000000 (0000ms, 0748ms total)
T0FA0 001:264 JLINK_ClrBPEx(BPHandle = 0x0000000A)  returns 0x00 (0000ms, 0748ms total)
T0FA0 001:264 JLINK_ReadReg(R0)  returns 0x00000000 (0000ms, 0748ms total)
T0FA0 001:264 JLINK_WriteReg(R0, 0x00000002)  returns 0x00 (0000ms, 0748ms total)
T0FA0 001:264 JLINK_WriteReg(R1, 0x00000328)  returns 0x00 (0000ms, 0748ms total)
T0FA0 001:264 JLINK_WriteReg(R2, 0x20000164)  returns 0x00 (0000ms, 0748ms total)
T0FA0 001:264 JLINK_WriteReg(R3, 0x00000000)  returns 0x00 (0000ms, 0748ms total)
T0FA0 001:264 JLINK_WriteReg(R4, 0x00000000)  returns 0x00 (0000ms, 0748ms total)
T0FA0 001:264 JLINK_WriteReg(R5, 0x00000000)  returns 0x00 (0000ms, 0748ms total)
T0FA0 001:264 JLINK_WriteReg(R6, 0x00000000)  returns 0x00 (0000ms, 0748ms total)
T0FA0 001:264 JLINK_WriteReg(R7, 0x00000000)  returns 0x00 (0000ms, 0748ms total)
T0FA0 001:264 JLINK_WriteReg(R8, 0x00000000)  returns 0x00 (0000ms, 0748ms total)
T0FA0 001:264 JLINK_WriteReg(R9, 0x20000160)  returns 0x00 (0000ms, 0748ms total)
T0FA0 001:264 JLINK_WriteReg(R10, 0x00000000)  returns 0x00 (0000ms, 0748ms total)
T0FA0 001:264 JLINK_WriteReg(R11, 0x00000000)  returns 0x00 (0000ms, 0748ms total)
T0FA0 001:264 JLINK_WriteReg(R12, 0x00000000)  returns 0x00 (0000ms, 0748ms total)
T0FA0 001:264 JLINK_WriteReg(R13 (SP), 0x20000800)  returns 0x00 (0000ms, 0748ms total)
T0FA0 001:264 JLINK_WriteReg(R14, 0x20000001)  returns 0x00 (0000ms, 0748ms total)
T0FA0 001:264 JLINK_WriteReg(R15 (PC), 0x2000006A)  returns 0x00 (0000ms, 0748ms total)
T0FA0 001:264 JLINK_WriteReg(XPSR, 0x01000000)  returns 0x00 (0000ms, 0748ms total)
T0FA0 001:264 JLINK_WriteReg(MSP, 0x20000800)  returns 0x00 (0000ms, 0748ms total)
T0FA0 001:264 JLINK_WriteReg(PSP, 0x20000800)  returns 0x00 (0000ms, 0748ms total)
T0FA0 001:264 JLINK_WriteReg(CFBP, 0x00000000)  returns 0x00 (0000ms, 0748ms total)
T0FA0 001:264 JLINK_SetBPEx(Addr = 0x20000000, Type = 0xFFFFFFF2)  returns 0x0000000B (0000ms, 0748ms total)
T0FA0 001:264 JLINK_Go() (0003ms, 0751ms total)
T0FA0 001:267 JLINK_IsHalted() -- CPU_ReadMem(2 bytes @ 0x20000000)  returns TRUE (0006ms, 0757ms total)
T0FA0 001:273 JLINK_ReadReg(R15 (PC))  returns 0x20000000 (0000ms, 0751ms total)
T0FA0 001:273 JLINK_ClrBPEx(BPHandle = 0x0000000B)  returns 0x00 (0000ms, 0751ms total)
T0FA0 001:273 JLINK_ReadReg(R0)  returns 0x00000000 (0000ms, 0751ms total)
T0FA0 001:327 JLINK_WriteMem(0x20000000, 0x0164 Bytes, ...) -- Data:  00 BE 0A E0 0D 78 2D 06 68 40 08 24 40 00 00 D3 ... -- CPU_WriteMem(356 bytes @ 0x20000000)  returns 0x164 (0003ms, 0754ms total)
T0FA0 001:330 JLINK_WriteReg(R0, 0x08000000)  returns 0x00 (0000ms, 0754ms total)
T0FA0 001:330 JLINK_WriteReg(R1, 0x007A1200)  returns 0x00 (0000ms, 0754ms total)
T0FA0 001:330 JLINK_WriteReg(R2, 0x00000003)  returns 0x00 (0000ms, 0754ms total)
T0FA0 001:330 JLINK_WriteReg(R3, 0x00000000)  returns 0x00 (0000ms, 0754ms total)
T0FA0 001:330 JLINK_WriteReg(R4, 0x00000000)  returns 0x00 (0000ms, 0754ms total)
T0FA0 001:330 JLINK_WriteReg(R5, 0x00000000)  returns 0x00 (0000ms, 0754ms total)
T0FA0 001:330 JLINK_WriteReg(R6, 0x00000000)  returns 0x00 (0000ms, 0754ms total)
T0FA0 001:330 JLINK_WriteReg(R7, 0x00000000)  returns 0x00 (0000ms, 0754ms total)
T0FA0 001:330 JLINK_WriteReg(R8, 0x00000000)  returns 0x00 (0000ms, 0754ms total)
T0FA0 001:330 JLINK_WriteReg(R9, 0x20000160)  returns 0x00 (0000ms, 0754ms total)
T0FA0 001:330 JLINK_WriteReg(R10, 0x00000000)  returns 0x00 (0000ms, 0754ms total)
T0FA0 001:330 JLINK_WriteReg(R11, 0x00000000)  returns 0x00 (0000ms, 0754ms total)
T0FA0 001:330 JLINK_WriteReg(R12, 0x00000000)  returns 0x00 (0000ms, 0754ms total)
T0FA0 001:330 JLINK_WriteReg(R13 (SP), 0x20000800)  returns 0x00 (0000ms, 0754ms total)
T0FA0 001:330 JLINK_WriteReg(R14, 0x20000001)  returns 0x00 (0000ms, 0754ms total)
T0FA0 001:330 JLINK_WriteReg(R15 (PC), 0x20000038)  returns 0x00 (0000ms, 0754ms total)
T0FA0 001:330 JLINK_WriteReg(XPSR, 0x01000000)  returns 0x00 (0000ms, 0754ms total)
T0FA0 001:330 JLINK_WriteReg(MSP, 0x20000800)  returns 0x00 (0000ms, 0754ms total)
T0FA0 001:330 JLINK_WriteReg(PSP, 0x20000800)  returns 0x00 (0000ms, 0754ms total)
T0FA0 001:330 JLINK_WriteReg(CFBP, 0x00000000)  returns 0x00 (0000ms, 0754ms total)
T0FA0 001:330 JLINK_SetBPEx(Addr = 0x20000000, Type = 0xFFFFFFF2) -- CPU_ReadMem(2 bytes @ 0x20000000)  returns 0x0000000C (0001ms, 0755ms total)
T0FA0 001:331 JLINK_Go() -- CPU_WriteMem(2 bytes @ 0x20000000) (0003ms, 0758ms total)
T0FA0 001:334 JLINK_IsHalted() -- CPU_ReadMem(2 bytes @ 0x20000000)  returns TRUE (0006ms, 0764ms total)
T0FA0 001:340 JLINK_ReadReg(R15 (PC))  returns 0x20000000 (0000ms, 0758ms total)
T0FA0 001:340 JLINK_ClrBPEx(BPHandle = 0x0000000C)  returns 0x00 (0000ms, 0758ms total)
T0FA0 001:340 JLINK_ReadReg(R0)  returns 0x00000000 (0000ms, 0758ms total)
T0FA0 001:340 JLINK_WriteReg(R0, 0xFFFFFFFF)  returns 0x00 (0000ms, 0758ms total)
T0FA0 001:340 JLINK_WriteReg(R1, 0x08000000)  returns 0x00 (0000ms, 0758ms total)
T0FA0 001:340 JLINK_WriteReg(R2, 0x00001728)  returns 0x00 (0000ms, 0758ms total)
T0FA0 001:340 JLINK_WriteReg(R3, 0x04C11DB7)  returns 0x00 (0000ms, 0758ms total)
T0FA0 001:340 JLINK_WriteReg(R4, 0x00000000)  returns 0x00 (0000ms, 0758ms total)
T0FA0 001:340 JLINK_WriteReg(R5, 0x00000000)  returns 0x00 (0000ms, 0758ms total)
T0FA0 001:340 JLINK_WriteReg(R6, 0x00000000)  returns 0x00 (0000ms, 0758ms total)
T0FA0 001:340 JLINK_WriteReg(R7, 0x00000000)  returns 0x00 (0000ms, 0758ms total)
T0FA0 001:340 JLINK_WriteReg(R8, 0x00000000)  returns 0x00 (0000ms, 0758ms total)
T0FA0 001:340 JLINK_WriteReg(R9, 0x20000160)  returns 0x00 (0000ms, 0758ms total)
T0FA0 001:340 JLINK_WriteReg(R10, 0x00000000)  returns 0x00 (0000ms, 0758ms total)
T0FA0 001:340 JLINK_WriteReg(R11, 0x00000000)  returns 0x00 (0000ms, 0758ms total)
T0FA0 001:340 JLINK_WriteReg(R12, 0x00000000)  returns 0x00 (0000ms, 0758ms total)
T0FA0 001:340 JLINK_WriteReg(R13 (SP), 0x20000800)  returns 0x00 (0000ms, 0758ms total)
T0FA0 001:340 JLINK_WriteReg(R14, 0x20000001)  returns 0x00 (0000ms, 0758ms total)
T0FA0 001:340 JLINK_WriteReg(R15 (PC), 0x20000002)  returns 0x00 (0000ms, 0758ms total)
T0FA0 001:340 JLINK_WriteReg(XPSR, 0x01000000)  returns 0x00 (0000ms, 0758ms total)
T0FA0 001:340 JLINK_WriteReg(MSP, 0x20000800)  returns 0x00 (0000ms, 0758ms total)
T0FA0 001:340 JLINK_WriteReg(PSP, 0x20000800)  returns 0x00 (0000ms, 0758ms total)
T0FA0 001:340 JLINK_WriteReg(CFBP, 0x00000000)  returns 0x00 (0000ms, 0758ms total)
T0FA0 001:340 JLINK_SetBPEx(Addr = 0x20000000, Type = 0xFFFFFFF2)  returns 0x0000000D (0000ms, 0758ms total)
T0FA0 001:340 JLINK_Go() (0003ms, 0761ms total)
T0FA0 001:343 JLINK_IsHalted()  returns FALSE (0001ms, 0762ms total)
T0FA0 001:356 JLINK_IsHalted()  returns FALSE (0001ms, 0762ms total)
T0FA0 001:358 JLINK_IsHalted()  returns FALSE (0001ms, 0762ms total)
T0FA0 001:360 JLINK_IsHalted()  returns FALSE (0001ms, 0762ms total)
T0FA0 001:363 JLINK_IsHalted()  returns FALSE (0001ms, 0762ms total)
T0FA0 001:365 JLINK_IsHalted()  returns FALSE (0001ms, 0762ms total)
T0FA0 001:367 JLINK_IsHalted()  returns FALSE (0001ms, 0762ms total)
T0FA0 001:369 JLINK_IsHalted()  returns FALSE (0001ms, 0762ms total)
T0FA0 001:371 JLINK_IsHalted()  returns FALSE (0001ms, 0762ms total)
T0FA0 001:373 JLINK_IsHalted()  returns FALSE (0001ms, 0762ms total)
T0FA0 001:375 JLINK_IsHalted()  returns FALSE (0001ms, 0762ms total)
T0FA0 001:378 JLINK_IsHalted()  returns FALSE (0001ms, 0762ms total)
T0FA0 001:380 JLINK_IsHalted()  returns FALSE (0001ms, 0762ms total)
T0FA0 001:382 JLINK_IsHalted()  returns FALSE (0001ms, 0762ms total)
T0FA0 001:384 JLINK_IsHalted()  returns FALSE (0000ms, 0761ms total)
T0FA0 001:385 JLINK_IsHalted()  returns FALSE (0001ms, 0762ms total)
T0FA0 001:387 JLINK_IsHalted()  returns FALSE (0001ms, 0762ms total)
T0FA0 001:389 JLINK_IsHalted()  returns FALSE (0001ms, 0762ms total)
T0FA0 001:391 JLINK_IsHalted()  returns FALSE (0001ms, 0762ms total)
T0FA0 001:393 JLINK_IsHalted()  returns FALSE (0001ms, 0762ms total)
T0FA0 001:395 JLINK_IsHalted()  returns FALSE (0001ms, 0762ms total)
T0FA0 001:397 JLINK_IsHalted()  returns FALSE (0001ms, 0762ms total)
T0FA0 001:400 JLINK_IsHalted()  returns FALSE (0001ms, 0762ms total)
T0FA0 001:402 JLINK_IsHalted()  returns FALSE (0001ms, 0762ms total)
T0FA0 001:404 JLINK_IsHalted()  returns FALSE (0001ms, 0762ms total)
T0FA0 001:406 JLINK_IsHalted()  returns FALSE (0001ms, 0762ms total)
T0FA0 001:413 JLINK_IsHalted() -- CPU_ReadMem(2 bytes @ 0x20000000)  returns TRUE (0005ms, 0766ms total)
T0FA0 001:418 JLINK_ReadReg(R15 (PC))  returns 0x20000000 (0000ms, 0761ms total)
T0FA0 001:418 JLINK_ClrBPEx(BPHandle = 0x0000000D)  returns 0x00 (0000ms, 0761ms total)
T0FA0 001:418 JLINK_ReadReg(R0)  returns 0xFB4E402E (0000ms, 0761ms total)
T0FA0 001:419 JLINK_WriteReg(R0, 0x00000003)  returns 0x00 (0000ms, 0761ms total)
T0FA0 001:419 JLINK_WriteReg(R1, 0x08000000)  returns 0x00 (0000ms, 0761ms total)
T0FA0 001:419 JLINK_WriteReg(R2, 0x00001728)  returns 0x00 (0000ms, 0761ms total)
T0FA0 001:419 JLINK_WriteReg(R3, 0x04C11DB7)  returns 0x00 (0000ms, 0761ms total)
T0FA0 001:419 JLINK_WriteReg(R4, 0x00000000)  returns 0x00 (0000ms, 0761ms total)
T0FA0 001:419 JLINK_WriteReg(R5, 0x00000000)  returns 0x00 (0000ms, 0761ms total)
T0FA0 001:419 JLINK_WriteReg(R6, 0x00000000)  returns 0x00 (0000ms, 0761ms total)
T0FA0 001:419 JLINK_WriteReg(R7, 0x00000000)  returns 0x00 (0000ms, 0761ms total)
T0FA0 001:419 JLINK_WriteReg(R8, 0x00000000)  returns 0x00 (0000ms, 0761ms total)
T0FA0 001:419 JLINK_WriteReg(R9, 0x20000160)  returns 0x00 (0000ms, 0761ms total)
T0FA0 001:419 JLINK_WriteReg(R10, 0x00000000)  returns 0x00 (0000ms, 0761ms total)
T0FA0 001:419 JLINK_WriteReg(R11, 0x00000000)  returns 0x00 (0000ms, 0761ms total)
T0FA0 001:419 JLINK_WriteReg(R12, 0x00000000)  returns 0x00 (0000ms, 0761ms total)
T0FA0 001:419 JLINK_WriteReg(R13 (SP), 0x20000800)  returns 0x00 (0000ms, 0761ms total)
T0FA0 001:419 JLINK_WriteReg(R14, 0x20000001)  returns 0x00 (0000ms, 0761ms total)
T0FA0 001:419 JLINK_WriteReg(R15 (PC), 0x2000006A)  returns 0x00 (0000ms, 0761ms total)
T0FA0 001:419 JLINK_WriteReg(XPSR, 0x01000000)  returns 0x00 (0000ms, 0761ms total)
T0FA0 001:419 JLINK_WriteReg(MSP, 0x20000800)  returns 0x00 (0000ms, 0761ms total)
T0FA0 001:419 JLINK_WriteReg(PSP, 0x20000800)  returns 0x00 (0000ms, 0761ms total)
T0FA0 001:419 JLINK_WriteReg(CFBP, 0x00000000)  returns 0x00 (0000ms, 0761ms total)
T0FA0 001:419 JLINK_SetBPEx(Addr = 0x20000000, Type = 0xFFFFFFF2)  returns 0x0000000E (0000ms, 0761ms total)
T0FA0 001:419 JLINK_Go() (0003ms, 0764ms total)
T0FA0 001:422 JLINK_IsHalted() -- CPU_ReadMem(2 bytes @ 0x20000000)  returns TRUE (0005ms, 0769ms total)
T0FA0 001:427 JLINK_ReadReg(R15 (PC))  returns 0x20000000 (0000ms, 0764ms total)
T0FA0 001:428 JLINK_ClrBPEx(BPHandle = 0x0000000E)  returns 0x00 (0000ms, 0764ms total)
T0FA0 001:428 JLINK_ReadReg(R0)  returns 0x00000000 (0000ms, 0764ms total)
T0FA0 001:480 JLINK_SetResetType(JLINKARM_RESET_TYPE_NORMAL)  returns JLINKARM_RESET_TYPE_NORMAL (0000ms, 0764ms total)
T0FA0 001:480 JLINK_Reset() -- CPU_WriteMem(4 bytes @ 0xE000EDF0) -- CPU_WriteMem(4 bytes @ 0xE000EDFC) -- CPU_WriteMem(4 bytes @ 0xE000ED0C) -- CPU_ReadMem(4 bytes @ 0xE000EDF0) -- CPU_ReadMem(4 bytes @ 0xE000EDF0) -- CPU_WriteMem(4 bytes @ 0xE000EDF0) -- CPU_WriteMem(4 bytes @ 0xE000EDFC) -- CPU is running -- CPU_ReadMem(4 bytes @ 0xE000EDF0) >0x80 JTAG> >0x40 JTAG> >0x30 JTAG> >0x40 JTAG> >0x50 JTAG> >0x40 JTAG> -- CPU_WriteMem(4 bytes @ 0xE000EDFC) -- CPU_WriteMem(4 bytes @ 0xE0001028)
 -- CPU_WriteMem(4 bytes @ 0xE0001038) -- CPU_WriteMem(4 bytes @ 0xE0001048) -- CPU_WriteMem(4 bytes @ 0xE0001058) -- CPU_WriteMem(4 bytes @ 0xE0002000) -- CPU_ReadMem(4 bytes @ 0xE000EDFC) -- CPU_ReadMem(4 bytes @ 0xE0001000) (0040ms, 0804ms total)
T0FA0 001:520 JLINK_Go() -- CPU_ReadMem(2 bytes @ 0x20000000) -- CPU_WriteMem(2 bytes @ 0x20000000) -- CPU_WriteMem(4 bytes @ 0xE0002008) -- CPU_WriteMem(4 bytes @ 0xE000200C) -- CPU_WriteMem(4 bytes @ 0xE0002010) -- CPU_WriteMem(4 bytes @ 0xE0002014) -- CPU_WriteMem(4 bytes @ 0xE0002018) -- CPU_WriteMem(4 bytes @ 0xE000201C) -- CPU_WriteMem(4 bytes @ 0xE0001004) (0009ms, 0813ms total)
T0FA0 001:639 JLINK_Close() -- CPU is running -- CPU_WriteMem(4 bytes @ 0xE0002008) -- CPU is running -- CPU_WriteMem(4 bytes @ 0xE000200C) -- CPU is running -- CPU_WriteMem(4 bytes @ 0xE0002010) -- CPU is running -- CPU_WriteMem(4 bytes @ 0xE0002014) -- CPU is running -- CPU_WriteMem(4 bytes @ 0xE0002018) -- CPU is running -- CPU_WriteMem(4 bytes @ 0xE000201C) >0x80 JTAG> >0x08 JTAG> (0012ms, 0825ms total)
T0FA0 001:639  (0012ms, 0825ms total)
T0FA0 001:639 Closed (0012ms, 0825ms total)
